time	V(n003)	I(L1)	I(L2)
0.000000000000000e+000	-4.399217e+002	-8.006758e+001	5.000000e+002
1.428571424964633e-007	-4.390297e+002	-8.006586e+001	4.993122e+002
2.857142849929266e-007	-4.381409e+002	-8.006124e+001	4.986246e+002
4.285714274893899e-007	-4.372551e+002	-8.005370e+001	4.979371e+002
5.714285699858532e-007	-4.363723e+002	-8.004326e+001	4.972497e+002
7.142857124823165e-007	-4.354927e+002	-8.002991e+001	4.965625e+002
8.571428549787799e-007	-4.346161e+002	-8.001365e+001	4.958753e+002
9.999999974752427e-007	-4.337426e+002	-7.999448e+001	4.951884e+002
1.999999994950485e-006	-4.276612e+002	-7.983142e+001	4.903829e+002
2.249999994319296e-006	-4.261576e+002	-7.977610e+001	4.891832e+002
2.749999993056917e-006	-4.231880e+002	-7.963435e+001	4.867890e+002
3.749999990532160e-006	-4.173019e+002	-7.930957e+001	4.820098e+002
3.999999989900971e-006	-4.158458e+002	-7.921687e+001	4.808180e+002
4.499999988638592e-006	-4.129684e+002	-7.900696e+001	4.784425e+002
5.749999985482646e-006	-4.058511e+002	-7.843262e+001	4.725242e+002
7.249999981695510e-006	-3.975226e+002	-7.761738e+001	4.654890e+002
7.999999979801942e-006	-3.934406e+002	-7.716764e+001	4.620024e+002
9.249999976645995e-006	-3.867294e+002	-7.637610e+001	4.562300e+002
1.099999997222767e-005	-3.775678e+002	-7.517604e+001	4.482584e+002
1.274999996780935e-005	-3.686532e+002	-7.389844e+001	4.404173e+002
1.407142853590163e-005	-3.620880e+002	-7.288254e+001	4.345853e+002
1.539285710399392e-005	-3.556426e+002	-7.185569e+001	4.288369e+002
1.671428567208620e-005	-3.493168e+002	-7.081790e+001	4.231723e+002
1.803571424017849e-005	-3.431107e+002	-6.976916e+001	4.175914e+002
1.935714280827077e-005	-3.370242e+002	-6.870949e+001	4.120941e+002
2.067857137636306e-005	-3.310575e+002	-6.763886e+001	4.066806e+002
2.199999994445534e-005	-3.252104e+002	-6.655730e+001	4.013508e+002
2.417857136752640e-005	-3.158123e+002	-6.478556e+001	3.927586e+002
2.635714279059747e-005	-3.066727e+002	-6.304279e+001	3.843875e+002
2.853571421366854e-005	-2.977915e+002	-6.132900e+001	3.762376e+002
3.071428563673960e-005	-2.891687e+002	-5.964419e+001	3.683087e+002
3.289285705981066e-005	-2.808043e+002	-5.798835e+001	3.606009e+002
3.507142848288173e-005	-2.726983e+002	-5.636148e+001	3.531143e+002
3.724999990595279e-005	-2.648506e+002	-5.476359e+001	3.458487e+002
4.382142846079010e-005	-2.428284e+002	-5.025353e+001	3.254398e+002
5.039285701562741e-005	-2.223348e+002	-4.604926e+001	3.064421e+002
5.696428557046473e-005	-2.033699e+002	-4.215078e+001	2.888554e+002
6.353571412530203e-005	-1.859336e+002	-3.855810e+001	2.726798e+002
7.010714268013935e-005	-1.700259e+002	-3.527122e+001	2.579152e+002
7.667857123497667e-005	-1.556469e+002	-3.229013e+001	2.445618e+002
8.324999978981396e-005	-1.427966e+002	-2.961483e+001	2.326194e+002
8.999999977277184e-005	-1.306197e+002	-2.709162e+001	2.213120e+002
9.674999975572973e-005	-1.193048e+002	-2.474700e+001	2.108051e+002
1.034999997386876e-004	-1.088519e+002	-2.258096e+001	2.010986e+002
1.102499997216455e-004	-9.926100e+001	-2.059350e+001	1.921925e+002
1.169999997046034e-004	-9.053213e+001	-1.878463e+001	1.840868e+002
1.237499996875613e-004	-8.266526e+001	-1.715434e+001	1.767816e+002
1.304999996705192e-004	-7.566039e+001	-1.570264e+001	1.702767e+002
1.372499996534771e-004	-6.919761e+001	-1.436333e+001	1.642753e+002
1.439999996364350e-004	-6.319233e+001	-1.311884e+001	1.586988e+002
1.507499996193928e-004	-5.764455e+001	-1.196915e+001	1.535471e+002
1.574999996023507e-004	-5.255426e+001	-1.091427e+001	1.488202e+002
1.642499995853086e-004	-4.792146e+001	-9.954199e+000	1.445181e+002
1.709999995682665e-004	-4.374616e+001	-9.088936e+000	1.406409e+002
1.777499995512244e-004	-4.002836e+001	-8.318481e+000	1.371885e+002
1.844285709629340e-004	-3.663205e+001	-7.614653e+000	1.340347e+002
1.911071423746437e-004	-3.347429e+001	-6.960256e+000	1.311023e+002
1.977857137863534e-004	-3.055505e+001	-6.355293e+000	1.283915e+002
2.044642851980630e-004	-2.787436e+001	-5.799763e+000	1.259022e+002
2.111428566097727e-004	-2.543220e+001	-5.293666e+000	1.236344e+002
2.178214280214823e-004	-2.322858e+001	-4.837001e+000	1.215881e+002
2.244999994331920e-004	-2.126350e+001	-4.429770e+000	1.197633e+002
2.309999994167811e-004	-1.949354e+001	-4.062975e+000	1.181197e+002
2.374999994003701e-004	-1.784559e+001	-3.721463e+000	1.165894e+002
2.439999993839592e-004	-1.631963e+001	-3.405234e+000	1.151724e+002
2.504999993675483e-004	-1.491568e+001	-3.114288e+000	1.138687e+002
2.569999993511374e-004	-1.363373e+001	-2.848625e+000	1.126782e+002
2.634999993347265e-004	-1.247378e+001	-2.608244e+000	1.116011e+002
2.699999993183155e-004	-1.143584e+001	-2.393147e+000	1.106373e+002
2.769999993006422e-004	-1.038757e+001	-2.175910e+000	1.096638e+002
2.839999992829689e-004	-9.433148e+000	-1.978122e+000	1.087775e+002
2.959999992526718e-004	-7.993925e+000	-1.679867e+000	1.074411e+002
3.019999992375233e-004	-7.361372e+000	-1.548780e+000	1.068537e+002
3.119999992122757e-004	-6.397193e+000	-1.348970e+000	1.059583e+002
3.239999991819786e-004	-5.408844e+000	-1.144151e+000	1.050405e+002
3.299999991668301e-004	-4.974099e+000	-1.054057e+000	1.046368e+002
3.379999991466320e-004	-4.459121e+000	-9.473359e-001	1.041586e+002
3.539999991062359e-004	-3.535323e+000	-7.558938e-001	1.033008e+002
3.579999990961369e-004	-3.331520e+000	-7.136590e-001	1.031115e+002
3.659999990759388e-004	-2.979363e+000	-6.406803e-001	1.027845e+002
3.819999990355427e-004	-2.387082e+000	-5.179396e-001	1.022345e+002
4.118062910676309e-004	-1.539110e+000	-3.422112e-001	1.014471e+002
4.418752047648977e-004	-9.260807e-001	-2.151708e-001	1.008778e+002
4.679172955509114e-004	-5.659895e-001	-1.405478e-001	1.005434e+002
4.954815817509639e-004	-3.044783e-001	-8.635386e-002	1.003006e+002
5.211094521133384e-004	-1.330854e-001	-5.083547e-002	1.001414e+002
5.442451988892986e-004	-2.252600e-002	-2.792383e-002	1.000388e+002
5.649816888960340e-004	5.063637e-002	-1.276212e-002	9.997083e+001
5.830084831060415e-004	9.885679e-002	-2.769220e-003	9.992605e+001
6.019404344557414e-004	1.379749e-001	5.337370e-003	9.988972e+001
6.201378503511431e-004	1.668613e-001	1.132362e-002	9.986289e+001
6.449002315779151e-004	1.960567e-001	1.737387e-002	9.983578e+001
6.739831291532752e-004	2.202912e-001	2.239609e-002	9.981328e+001
7.108364966348549e-004	2.403421e-001	2.655130e-002	9.979465e+001
7.524837401990621e-004	2.539853e-001	2.937864e-002	9.978199e+001
8.042411526915864e-004	2.631767e-001	3.128340e-002	9.977345e+001
8.650593167116544e-004	2.683961e-001	3.236504e-002	9.976861e+001
9.438976749628135e-004	2.711459e-001	3.293490e-002	9.976605e+001
1.041553924962814e-003	2.722994e-001	3.317393e-002	9.976498e+001
5.983061642496340e-002	2.726900e-001	3.325487e-002	9.976462e+001
9.996733517496131e-002	2.726900e-001	3.325487e-002	9.976462e+001
1.000000000000000e-001	2.726900e-001	3.325487e-002	9.976462e+001
